# Version 1.00
#
freq[Hz];db:Trc1_S21;ang:Trc1_S21;
3.609800000000000E+009;-4.925188084280333E+001;-1.282231393755203E+002;
3.609805000000000E+009;-5.018708841014519E+001;-1.253299845021369E+002;
3.609810000000000E+009;-4.928903158102455E+001;-1.269112038567600E+002;
3.609815000000000E+009;-4.921329616703982E+001;-1.271053054005648E+002;
3.609820000000000E+009;-4.906638011821576E+001;-1.300896244379011E+002;
3.609825000000000E+009;-4.941607992690584E+001;-1.308361730682343E+002;
3.609830000000000E+009;-4.915017253674591E+001;-1.287439443559310E+002;
3.609835000000000E+009;-4.942537405331501E+001;-1.272932923881212E+002;
3.609840000000000E+009;-4.918663138993519E+001;-1.290444494358976E+002;
3.609845000000000E+009;-4.980864914120976E+001;-1.287850294594068E+002;
3.609850000000000E+009;-4.964941073533556E+001;-1.326574484483186E+002;
3.609855000000000E+009;-5.015136261516643E+001;-1.267302428285594E+002;
3.609860000000000E+009;-4.968735809741881E+001;-1.313859422825163E+002;
3.609865000000000E+009;-4.940778785135117E+001;-1.294538249241314E+002;
3.609870000000000E+009;-4.940364420058008E+001;-1.297191560039686E+002;
3.609875000000000E+009;-4.954433634670931E+001;-1.264131723493762E+002;
3.609880000000000E+009;-4.935560731623583E+001;-1.303388321000396E+002;
3.609885000000000E+009;-4.945499626084509E+001;-1.295027831226062E+002;
3.609890000000000E+009;-4.961952579362470E+001;-1.296553363337204E+002;
3.609895000000000E+009;-4.923919686481676E+001;-1.306778178580685E+002;
3.609900000000000E+009;-4.999868709478123E+001;-1.259983303011574E+002;
3.609905000000000E+009;-4.924685320643688E+001;-1.295607963783555E+002;
3.609910000000000E+009;-4.952621572819286E+001;-1.273884796628432E+002;
3.609915000000000E+009;-4.949931924646233E+001;-1.283795231165958E+002;
3.609920000000000E+009;-4.951434300792364E+001;-1.287753332350263E+002;
3.609925000000000E+009;-4.955707793255336E+001;-1.287888493128001E+002;
3.609930000000000E+009;-4.956641718691098E+001;-1.292908292272000E+002;
3.609935000000000E+009;-4.946178629200789E+001;-1.289266215504958E+002;
3.609940000000000E+009;-4.949164111325874E+001;-1.293729997467901E+002;
3.609945000000000E+009;-4.952022408815420E+001;-1.288887415552046E+002;
3.609950000000000E+009;-4.952875845068579E+001;-1.293698483714245E+002;
3.609955000000000E+009;-4.952551776961140E+001;-1.290685652961893E+002;
3.609960000000000E+009;-4.950985466636829E+001;-1.292405380728561E+002;
3.609965000000000E+009;-4.952189735981128E+001;-1.297483152000351E+002;
3.609970000000000E+009;-4.956908525497421E+001;-1.293154204564735E+002;
3.609975000000000E+009;-4.947382508426773E+001;-1.293040486688831E+002;
3.609980000000000E+009;-4.950088464360746E+001;-1.298677323600699E+002;
3.609985000000000E+009;-4.953169117773400E+001;-1.296421843715307E+002;
3.609990000000000E+009;-4.948058539910883E+001;-1.294448630970920E+002;
3.609995000000000E+009;-4.956372862013805E+001;-1.298162508353982E+002;
3.610000000000000E+009;-4.957070056056305E+001;-1.297579723941793E+002;
3.610005000000000E+009;-4.948549770980671E+001;-1.305162666695043E+002;
3.610010000000000E+009;-4.948905124337170E+001;-1.296386260178371E+002;
3.610015000000000E+009;-4.945916068711534E+001;-1.298869623275685E+002;
3.610020000000000E+009;-4.955690349677967E+001;-1.301634441792856E+002;
3.610025000000000E+009;-4.950899231376774E+001;-1.303386680087227E+002;
3.610030000000000E+009;-4.941153701871409E+001;-1.297914000502641E+002;
3.610035000000000E+009;-4.957241797701600E+001;-1.299443482927833E+002;
3.610040000000000E+009;-4.951134177298292E+001;-1.301893914243842E+002;
3.610045000000000E+009;-4.945293437123535E+001;-1.302254354276974E+002;
3.610050000000000E+009;-4.946827518083754E+001;-1.302836208385116E+002;
3.610055000000000E+009;-4.947280714647572E+001;-1.304667112948731E+002;
3.610060000000000E+009;-4.957665449949862E+001;-1.306184018064814E+002;
3.610065000000000E+009;-4.952370559509645E+001;-1.303986195722450E+002;
3.610070000000000E+009;-4.947658227825255E+001;-1.301987175321499E+002;
3.610075000000000E+009;-4.959547582171193E+001;-1.302815388616113E+002;
3.610080000000000E+009;-4.950460099645269E+001;-1.304970764347620E+002;
3.610085000000000E+009;-4.945361776501544E+001;-1.305447739103224E+002;
3.610090000000000E+009;-4.960993859615380E+001;-1.301983247477148E+002;
3.610095000000000E+009;-4.948837385677302E+001;-1.304371269506467E+002;
3.610100000000000E+009;-4.944921592343327E+001;-1.305165065831466E+002;
3.610105000000000E+009;-4.957989880167395E+001;-1.311728448815918E+002;
3.610110000000000E+009;-4.955233979775106E+001;-1.315872568222308E+002;
3.610115000000000E+009;-4.951108651227475E+001;-1.309446955223233E+002;
3.610120000000000E+009;-4.957043359528019E+001;-1.310287050849409E+002;
3.610125000000000E+009;-4.951446209542816E+001;-1.311721930292555E+002;
3.610130000000000E+009;-4.955392401739942E+001;-1.308838022428662E+002;
3.610135000000000E+009;-4.958770455559809E+001;-1.304976070995043E+002;
3.610140000000000E+009;-4.947614800160592E+001;-1.305683336681097E+002;
3.610145000000000E+009;-4.953548835549367E+001;-1.312371107300914E+002;
3.610150000000000E+009;-4.957691273543033E+001;-1.311996305266730E+002;
3.610155000000000E+009;-4.954856201034185E+001;-1.311902392870026E+002;
3.610160000000000E+009;-4.950532676024859E+001;-1.316558985472319E+002;
3.610165000000000E+009;-4.952261945648554E+001;-1.316047442828078E+002;
3.610170000000000E+009;-4.950478604602368E+001;-1.317611486936989E+002;
3.610175000000000E+009;-4.958001531150651E+001;-1.312897044289480E+002;
3.610180000000000E+009;-4.964552417066228E+001;-1.312283352244578E+002;
3.610185000000000E+009;-4.944264856908268E+001;-1.310756334610719E+002;
3.610190000000000E+009;-4.951262815845966E+001;-1.322404790283985E+002;
3.610195000000000E+009;-4.957976025446058E+001;-1.316851970565353E+002;
3.610200000000000E+009;-4.949135162367212E+001;-1.317563490572038E+002;
3.610205000000000E+009;-4.962378958804771E+001;-1.318956976601355E+002;
3.610210000000000E+009;-4.954208963065419E+001;-1.316338237808898E+002;
3.610215000000000E+009;-4.943774632581840E+001;-1.319468719295824E+002;
3.610220000000000E+009;-4.950939579521869E+001;-1.317575170484072E+002;
3.610225000000000E+009;-4.955151356542903E+001;-1.325834915393445E+002;
3.610230000000000E+009;-4.954017349046880E+001;-1.323578302551040E+002;
3.610235000000000E+009;-4.951941308846347E+001;-1.322990521098187E+002;
3.610240000000000E+009;-4.958438732181602E+001;-1.319807188483703E+002;
3.610245000000000E+009;-4.953481013839571E+001;-1.319630635498826E+002;
3.610250000000000E+009;-4.957164997428305E+001;-1.323567914748501E+002;
3.610255000000000E+009;-4.943636896353699E+001;-1.318011377018424E+002;
3.610260000000000E+009;-4.961734964730105E+001;-1.321618169427914E+002;
3.610265000000000E+009;-4.945165718843390E+001;-1.317429470168733E+002;
3.610270000000000E+009;-4.947041924668758E+001;-1.323811349801403E+002;
3.610275000000000E+009;-4.954109184532047E+001;-1.323421831818665E+002;
3.610280000000000E+009;-4.954266942966185E+001;-1.320217233645426E+002;
3.610285000000000E+009;-4.950910372470908E+001;-1.323516891995145E+002;
3.610290000000000E+009;-4.951691373879645E+001;-1.320894075667160E+002;
3.610295000000000E+009;-4.953306629350475E+001;-1.323871282278296E+002;
3.610300000000000E+009;-4.958588694060403E+001;-1.327340063893249E+002;
3.610305000000000E+009;-4.946402881196531E+001;-1.326337890815195E+002;
3.610310000000000E+009;-4.946731301591534E+001;-1.319015828191657E+002;
3.610315000000000E+009;-4.952391299331126E+001;-1.327566820084734E+002;
3.610320000000000E+009;-4.948406036652087E+001;-1.329376537377068E+002;
3.610325000000000E+009;-4.957630762625157E+001;-1.326816599707974E+002;
3.610330000000000E+009;-4.951726509598618E+001;-1.323810115730254E+002;
3.610335000000000E+009;-4.947256829636305E+001;-1.329532088236834E+002;
3.610340000000000E+009;-4.952486943545002E+001;-1.332637484004318E+002;
3.610345000000000E+009;-4.951343167334088E+001;-1.329053562530675E+002;
3.610350000000000E+009;-4.955537622474210E+001;-1.331829806225412E+002;
3.610355000000000E+009;-4.952954889490642E+001;-1.335420153221822E+002;
3.610360000000000E+009;-4.954202677007629E+001;-1.334171364523944E+002;
3.610365000000000E+009;-4.945346141420874E+001;-1.328696452208574E+002;
3.610370000000000E+009;-4.946946920533279E+001;-1.329242613344970E+002;
3.610375000000000E+009;-4.951270580872383E+001;-1.336300240456487E+002;
3.610380000000000E+009;-4.951144626564542E+001;-1.336446765139772E+002;
3.610385000000000E+009;-4.952809636461809E+001;-1.333121259934486E+002;
3.610390000000000E+009;-4.955445985792450E+001;-1.336585306512780E+002;
3.610395000000000E+009;-4.953971981081082E+001;-1.334385132449585E+002;
3.610400000000000E+009;-4.943854610336778E+001;-1.327621579176982E+002;
3.610405000000000E+009;-4.954295281741182E+001;-1.335229444092624E+002;
3.610410000000000E+009;-4.950973480486901E+001;-1.334896578175186E+002;
3.610415000000000E+009;-4.955796063064659E+001;-1.335497993912324E+002;
3.610420000000000E+009;-4.951650174081415E+001;-1.344977873945899E+002;
3.610425000000000E+009;-4.963370510370215E+001;-1.340584330750065E+002;
3.610430000000000E+009;-4.939990184246419E+001;-1.337891967845436E+002;
3.610435000000000E+009;-4.952745825936836E+001;-1.336874055478928E+002;
3.610440000000000E+009;-4.955126229912878E+001;-1.338108510755133E+002;
3.610445000000000E+009;-4.950212625202183E+001;-1.334931284544036E+002;
3.610450000000000E+009;-4.945968106068903E+001;-1.336796041213725E+002;
3.610455000000000E+009;-4.951389951268482E+001;-1.347246358222551E+002;
3.610460000000000E+009;-4.944260964320966E+001;-1.340420309715638E+002;
3.610465000000000E+009;-4.947082408463464E+001;-1.343231036095333E+002;
3.610470000000000E+009;-4.944654645908676E+001;-1.342773448824586E+002;
3.610475000000000E+009;-4.956738967757228E+001;-1.344493687805118E+002;
3.610480000000000E+009;-4.954458756382624E+001;-1.337739588340633E+002;
3.610485000000000E+009;-4.946249327762181E+001;-1.345548188824296E+002;
3.610490000000000E+009;-4.953860185180162E+001;-1.343340590282710E+002;
3.610495000000000E+009;-4.961221701601340E+001;-1.344355938495123E+002;
3.610500000000000E+009;-4.950910803943427E+001;-1.343704594291761E+002;
3.610505000000000E+009;-4.952451768251166E+001;-1.347186234277498E+002;
3.610510000000000E+009;-4.959103561725486E+001;-1.349130560754367E+002;
3.610515000000000E+009;-4.956806059929863E+001;-1.342151813494056E+002;
3.610520000000000E+009;-4.943505417684386E+001;-1.347618981035714E+002;
3.610525000000000E+009;-4.953168511546900E+001;-1.344392760151090E+002;
3.610530000000000E+009;-4.945736806923559E+001;-1.346380225602136E+002;
3.610535000000000E+009;-4.952571864303474E+001;-1.345474079216567E+002;
3.610540000000000E+009;-4.958467980497019E+001;-1.349934531229252E+002;
3.610545000000000E+009;-4.953298459497157E+001;-1.347618720972874E+002;
3.610550000000000E+009;-4.944612352778443E+001;-1.350090727964965E+002;
3.610555000000000E+009;-4.955455676298976E+001;-1.349188321758228E+002;
3.610560000000000E+009;-4.949881378869436E+001;-1.349111035906623E+002;
3.610565000000000E+009;-4.950205512586024E+001;-1.350195065009760E+002;
3.610570000000000E+009;-4.948008401225630E+001;-1.356474099810031E+002;
3.610575000000000E+009;-4.951712444492941E+001;-1.350704025338436E+002;
3.610580000000000E+009;-4.948550859645195E+001;-1.351462465300492E+002;
3.610585000000000E+009;-4.949708478379325E+001;-1.356058553599255E+002;
3.610590000000000E+009;-4.955743592541460E+001;-1.355160341229370E+002;
3.610595000000000E+009;-4.946529609271079E+001;-1.355138603045854E+002;
3.610600000000000E+009;-4.940346547326001E+001;-1.356007006757675E+002;
3.610605000000000E+009;-4.955547063219215E+001;-1.348794162255689E+002;
3.610610000000000E+009;-4.945975958542419E+001;-1.348923282542321E+002;
3.610615000000000E+009;-4.953756375020137E+001;-1.351972471395303E+002;
3.610620000000000E+009;-4.954923034807739E+001;-1.364134575359925E+002;
3.610625000000000E+009;-4.949674653608007E+001;-1.360883192855175E+002;
3.610630000000000E+009;-4.944299045911716E+001;-1.358131242460322E+002;
3.610635000000000E+009;-4.952690407166365E+001;-1.353791264153128E+002;
3.610640000000000E+009;-4.940196373451498E+001;-1.356966623091597E+002;
3.610645000000000E+009;-4.956558023412136E+001;-1.362500522344603E+002;
3.610650000000000E+009;-4.946855631405808E+001;-1.351519738844210E+002;
3.610655000000000E+009;-4.952026546988962E+001;-1.358352062102787E+002;
3.610660000000000E+009;-4.954841312228780E+001;-1.352981889205674E+002;
3.610665000000000E+009;-4.947059656661637E+001;-1.356987649277201E+002;
3.610670000000000E+009;-4.955906477432652E+001;-1.357471075633937E+002;
3.610675000000000E+009;-4.950845096819791E+001;-1.354943863460067E+002;
3.610680000000000E+009;-4.946957963813225E+001;-1.363407404821620E+002;
3.610685000000000E+009;-4.945662990269842E+001;-1.365373852272410E+002;
3.610690000000000E+009;-4.948940963412295E+001;-1.359803795588425E+002;
3.610695000000000E+009;-4.954864132915592E+001;-1.364210273732973E+002;
3.610700000000000E+009;-4.947545314050561E+001;-1.358635853907589E+002;
3.610705000000000E+009;-4.944443588041985E+001;-1.360314423747018E+002;
3.610710000000000E+009;-4.951668300326300E+001;-1.365365457775046E+002;
3.610715000000000E+009;-4.957222214281239E+001;-1.359944017986941E+002;
3.610720000000000E+009;-4.953108276424192E+001;-1.364439245561103E+002;
3.610725000000000E+009;-4.948153647322967E+001;-1.362235060692999E+002;
3.610730000000000E+009;-4.948431993083790E+001;-1.370749034406691E+002;
3.610735000000000E+009;-4.952015328914615E+001;-1.365258313296240E+002;
3.610740000000000E+009;-4.951234517504575E+001;-1.363593541451028E+002;
3.610745000000000E+009;-4.952283136297999E+001;-1.364927992997376E+002;
3.610750000000000E+009;-4.949508532169364E+001;-1.366964774096092E+002;
3.610755000000000E+009;-4.948724236871521E+001;-1.363484753501081E+002;
3.610760000000000E+009;-4.948187867022587E+001;-1.370167968347459E+002;
3.610765000000000E+009;-4.947774770438307E+001;-1.366228673673694E+002;
3.610770000000000E+009;-4.945638321740419E+001;-1.369465128934834E+002;
3.610775000000000E+009;-4.953499391576440E+001;-1.367811566674368E+002;
3.610780000000000E+009;-4.950338328170894E+001;-1.366968341556160E+002;
3.610785000000000E+009;-4.956810787132378E+001;-1.369385686777212E+002;
3.610790000000000E+009;-4.948984334217065E+001;-1.369282526284144E+002;
3.610795000000000E+009;-4.949816110475446E+001;-1.374977808273040E+002;
3.610800000000000E+009;-4.949968571609470E+001;-1.375653534008881E+002;
3.610805000000000E+009;-4.955437833710061E+001;-1.369885551751936E+002;
3.610810000000000E+009;-4.950598199037447E+001;-1.370585957389579E+002;
3.610815000000000E+009;-4.949484707275826E+001;-1.371908780900341E+002;
3.610820000000000E+009;-4.947676536730376E+001;-1.375202580706309E+002;
3.610825000000000E+009;-4.955599873529578E+001;-1.370332556431496E+002;
3.610830000000000E+009;-4.940327567473985E+001;-1.379473241493854E+002;
3.610835000000000E+009;-4.944959155544350E+001;-1.373162112151560E+002;
3.610840000000000E+009;-4.955853285626042E+001;-1.373850204727460E+002;
3.610845000000000E+009;-4.946555149434379E+001;-1.371831288965279E+002;
3.610850000000000E+009;-4.954608499127069E+001;-1.376280180639113E+002;
3.610855000000000E+009;-4.952805335611447E+001;-1.378487593576503E+002;
3.610860000000000E+009;-4.948659010423388E+001;-1.379656504308308E+002;
3.610865000000000E+009;-4.952395067595261E+001;-1.379166934759472E+002;
3.610870000000000E+009;-4.954851262132985E+001;-1.375597918489278E+002;
3.610875000000000E+009;-4.945049657041071E+001;-1.379741361079226E+002;
3.610880000000000E+009;-4.943656788460716E+001;-1.373913763290331E+002;
3.610885000000000E+009;-4.944237912006743E+001;-1.383072631089524E+002;
3.610890000000000E+009;-4.954946593248145E+001;-1.383822331059088E+002;
3.610895000000000E+009;-4.966241092532056E+001;-1.381655155133583E+002;
3.610900000000000E+009;-4.950381206591378E+001;-1.378103644234022E+002;
3.610905000000000E+009;-4.955514101761377E+001;-1.383409019237925E+002;
3.610910000000000E+009;-4.956389264193881E+001;-1.381450201425573E+002;
3.610915000000000E+009;-4.942409036416468E+001;-1.380336968807374E+002;
3.610920000000000E+009;-4.950467810671069E+001;-1.385823972976033E+002;
3.610925000000000E+009;-4.955803931423007E+001;-1.382351077931983E+002;
3.610930000000000E+009;-4.960545615094803E+001;-1.382348358251005E+002;
3.610935000000000E+009;-4.956251281710368E+001;-1.383177817915551E+002;
3.610940000000000E+009;-4.945145243265576E+001;-1.385213320396367E+002;
3.610945000000000E+009;-4.947475962410444E+001;-1.386776749391459E+002;
3.610950000000000E+009;-4.945847809227917E+001;-1.385545050649218E+002;
3.610955000000000E+009;-4.945300947512975E+001;-1.385491100836719E+002;
3.610960000000000E+009;-4.951936637702674E+001;-1.390099749329575E+002;
3.610965000000000E+009;-4.953575012756442E+001;-1.390806463099632E+002;
3.610970000000000E+009;-4.953210797290306E+001;-1.385481326612853E+002;
3.610975000000000E+009;-4.956484697692081E+001;-1.383359832704126E+002;
3.610980000000000E+009;-4.954576137909567E+001;-1.385958393923706E+002;
3.610985000000000E+009;-4.953853958030499E+001;-1.386713668908380E+002;
3.610990000000000E+009;-4.944605733069955E+001;-1.385704989995673E+002;
3.610995000000000E+009;-4.948448219162110E+001;-1.390426848620225E+002;
3.611000000000000E+009;-4.944087566246562E+001;-1.390546519253323E+002;
3.611005000000000E+009;-4.949524848311653E+001;-1.390533033961383E+002;
3.611010000000000E+009;-4.960245593745064E+001;-1.389883183261962E+002;
3.611015000000000E+009;-4.945706538904156E+001;-1.390818151378385E+002;
3.611020000000000E+009;-4.953763772988167E+001;-1.393221907506856E+002;
3.611025000000000E+009;-4.943054669379649E+001;-1.387309448749720E+002;
3.611030000000000E+009;-4.954681733053522E+001;-1.394569503561029E+002;
3.611035000000000E+009;-4.953113547186953E+001;-1.396914431957735E+002;
3.611040000000000E+009;-4.940271897738903E+001;-1.397406961504991E+002;
3.611045000000000E+009;-4.950608865346045E+001;-1.396987018022809E+002;
3.611050000000000E+009;-4.952008259372509E+001;-1.395422988637735E+002;
3.611055000000000E+009;-4.950054050885161E+001;-1.393895609533157E+002;
3.611060000000000E+009;-4.949807274162219E+001;-1.398328132765606E+002;
3.611065000000000E+009;-4.947601299144372E+001;-1.395481426165038E+002;
3.611070000000000E+009;-4.951924952465227E+001;-1.396463677860425E+002;
3.611075000000000E+009;-4.954310914078523E+001;-1.395516809489493E+002;
3.611080000000000E+009;-4.951062840269363E+001;-1.400781547886557E+002;
3.611085000000000E+009;-4.941422108422459E+001;-1.398219102288121E+002;
3.611090000000000E+009;-4.938832891509770E+001;-1.394358064613512E+002;
3.611095000000000E+009;-4.943790968893124E+001;-1.399298560830195E+002;
3.611100000000000E+009;-4.950295607083662E+001;-1.396114840214623E+002;
3.611105000000000E+009;-4.951996493498132E+001;-1.398915585575962E+002;
3.611110000000000E+009;-4.944977016757751E+001;-1.400492747734904E+002;
3.611115000000000E+009;-4.957707696655565E+001;-1.400990289036569E+002;
3.611120000000000E+009;-4.953322041499173E+001;-1.402441326082973E+002;
3.611125000000000E+009;-4.955151320248366E+001;-1.399578164180983E+002;
3.611130000000000E+009;-4.945582053105301E+001;-1.397906736221243E+002;
3.611135000000000E+009;-4.949836217152115E+001;-1.397251378235970E+002;
3.611140000000000E+009;-4.952183952383906E+001;-1.404652816770479E+002;
3.611145000000000E+009;-4.951896123592077E+001;-1.398624516825988E+002;
3.611150000000000E+009;-4.955030906125116E+001;-1.399454119065737E+002;
3.611155000000000E+009;-4.943711765693869E+001;-1.403756351415393E+002;
3.611160000000000E+009;-4.950720060665926E+001;-1.410305289063821E+002;
3.611165000000000E+009;-4.944696018378892E+001;-1.410420518900849E+002;
3.611170000000000E+009;-4.951969401185828E+001;-1.399802222296490E+002;
3.611175000000000E+009;-4.964275380525987E+001;-1.408146187996803E+002;
3.611180000000000E+009;-4.945653811763394E+001;-1.407949994159598E+002;
